
T0EF8 000:360 SEGGER J-Link V4.36l Log File (0000ms, 0358ms total)
T0EF8 000:360 DLL Compiled: Dec  2 2011 18:52:36 (0000ms, 0358ms total)
T0EF8 000:360 Logging started @ 2016-12-22 16:32 (0000ms, 0358ms total)
T0EF8 000:360 JLINK_SetWarnOutHandler(...) (0000ms, 0358ms total)
T0EF8 000:360 JLINK_OpenEx(...)
Firmware: J-Link ARM V8 compiled Sep 22 2011 16:23:23
Hardware: V8.00
S/N: 99999993
Feature(s): RDI,FlashDL,FlashBP,JFlash,GDBFULL  returns O.K. (0122ms, 0358ms total)
T0EF8 000:482 JLINK_SetErrorOutHandler(...) (0000ms, 0480ms total)
T0EF8 000:482 JLINK_ExecCommand("Device = STM32F103C8", ...)
                JLINK_ExecCommand("map ram 0x20000000 - 0x20004FFF", ...)  returns 0x00 (0000ms, 0000ms total)
                JLINK_AddMirrorAreaEx(Addr = 0x00000000, Size = 0x00000000) (0000ms, 0000ms total)
              Device "STM32F103C8" selected (64 KB flash, 20 KB RAM).  returns 0x00 (0002ms, 0480ms total)
T0EF8 000:486 JLINK_ExecCommand("ProjectFile = "C:\Users\87\Desktop\stm32temp_project\main\JLinkSettings.ini"", ...)  returns 0x00 (0000ms, 0482ms total)
T0EF8 000:489 JLINK_ExecCommand("DisableConnectionTimeout", ...)  returns 0x00 (0000ms, 0482ms total)
T0EF8 000:489 JLINK_TIF_Select(JLINKARM_TIF_JTAG)  returns 0x00 (0000ms, 0482ms total)
T0EF8 000:489 JLINK_SetSpeed(2000) (0001ms, 0482ms total)
T0EF8 000:492 JLINK_GetHardwareVersion()  returns 0x13880 (0000ms, 0483ms total)
T0EF8 000:493 JLINK_GetDLLVersion()  returns 43612 (0000ms, 0483ms total)
T0EF8 000:493 JLINK_GetFirmwareString(...) (0000ms, 0483ms total)
T0EF8 000:497 JLINK_GetDLLVersion()  returns 43612 (0000ms, 0483ms total)
T0EF8 000:497 JLINK_GetCompileDateTime() (0000ms, 0483ms total)
T0EF8 000:499 JLINK_GetFirmwareString(...) (0000ms, 0483ms total)
T0EF8 000:501 JLINK_GetHardwareVersion()  returns 0x13880 (0000ms, 0483ms total)
T0EF8 000:507 JLINK_GetIdData(...) >0x2F8 JTAG>TotalIRLen = 9, IRPrint = 0x0011 >0x30 JTAG> >0x210 JTAG> >0x80 JTAG> >0x40 JTAG> >0x40 JTAG> >0x50 JTAG> >0x40 JTAG> >0x40 JTAG> >0x40 JTAG> >0x50 JTAG> >0x40 JTAG> >0x50 JTAG> >0x40 JTAG> >0x40 JTAG> >0x40 JTAG> >0x30 JTAG> >0x40 JTAG> >0x50 JTAG> >0x40 JTAG> >0x38 JTAG> >0x80 JTAG> >0x40 JTAG> >0x40 JTAG> >0x50 JTAG> >0x40 JTAG> >0x40 JTAG> >0x40 JTAG> >0x50 JTAG> >0x40 JTAG> >0x40 JTAG> >0x30 JTAG> >0x40 JTAG> >0x40 JTAG> >0x40 JTAG> >0x40 JTAG>
 >0x40 JTAG> >0x50 JTAG> >0x40 JTAG> >0x80 JTAG> >0x40 JTAG> >0x30 JTAG> >0x40 JTAG> >0x40 JTAG> >0x40 JTAG> >0x40 JTAG> >0x40 JTAG> >0x50 JTAG> >0x40 JTAG> >0x80 JTAG> >0x40 JTAG> >0x30 JTAG> >0x40 JTAG> >0x50 JTAG> >0x40 JTAG> >0x40 JTAG> >0x40 JTAG> >0x30 JTAG> >0x40 JTAG> >0x50 JTAG> >0x40 JTAG>Found Cortex-M3 r1p1, Little endian. >0x50 JTAG> >0x50 JTAG> >0x40 JTAG> >0x40 JTAG> >0x30 JTAG> >0x30 JTAG> >0x50 JTAG> >0x40 JTAG> >0x80 JTAG> >0x40 JTAG> >0x30 JTAG> >0x40 JTAG> >0x50 JTAG> >0x40 JTAG>
 >0x40 JTAG> >0x40 JTAG> >0x30 JTAG> >0x40 JTAG> >0x50 JTAG> >0x40 JTAG>TPIU fitted. >0x40 JTAG> >0x40 JTAG> >0x30 JTAG> >0x40 JTAG> >0x50 JTAG> >0x40 JTAG> >0x40 JTAG> >0x40 JTAG> >0x30 JTAG> >0x40 JTAG> >0x50 JTAG> >0x40 JTAG> >0x40 JTAG> >0x40 JTAG> >0x30 JTAG> >0x40 JTAG> >0x50 JTAG> >0x40 JTAG>  FPUnit: 6 code (BP) slots and 2 literal slots >0x40 JTAG> >0x40 JTAG> >0x30 JTAG> >0x40 JTAG> >0x50 JTAG> >0x40 JTAG> >0x40 JTAG> >0x40 JTAG> >0x30 JTAG> >0x40 JTAG> >0x50 JTAG> >0x40 JTAG> ScanLen=9
 NumDevices=2 aId[0]=0x3BA00477 aIrRead[0]=0 aScanLen[0]=0 aScanRead[0]=0 (0122ms, 0483ms total)
T0EF8 000:629 JLINK_JTAG_GetDeviceID(DeviceIndex = 0)  returns 0x3BA00477 (0000ms, 0605ms total)
T0EF8 000:629 JLINK_JTAG_GetDeviceInfo(DeviceIndex = 0)  returns 0x00 (0000ms, 0605ms total)
T0EF8 000:629 JLINK_JTAG_GetDeviceID(DeviceIndex = 1)  returns 0x16410041 (0000ms, 0605ms total)
T0EF8 000:629 JLINK_JTAG_GetDeviceInfo(DeviceIndex = 1)  returns 0x00 (0000ms, 0605ms total)
T0EF8 000:629 JLINK_GetDebugInfo(0x100) -- Value=0xE00FF003  returns 0x00 (0001ms, 0605ms total)
T0EF8 000:631 JLINK_ReadMem (0xE00FFFF0, 0x0010 Bytes, ...) -- CPU is running -- CPU_ReadMem(16 bytes @ 0xE00FFFF0) -- Data:  0D 00 00 00 10 00 00 00 05 00 00 00 B1 00 00 00  returns 0x00 (0004ms, 0606ms total)
T0EF8 000:635 JLINK_ReadMem (0xE00FFFD0, 0x0020 Bytes, ...) -- CPU is running -- CPU_ReadMem(32 bytes @ 0xE00FFFD0) -- Data:  00 00 00 00 00 00 00 00 00 00 00 00 00 00 00 00 ...  returns 0x00 (0001ms, 0610ms total)
T0EF8 000:636 JLINK_ReadMem (0xE00FF000, 0x0018 Bytes, ...) -- CPU is running -- CPU_ReadMem(24 bytes @ 0xE00FF000) -- Data:  03 F0 F0 FF 03 20 F0 FF 03 30 F0 FF 03 10 F0 FF ...  returns 0x00 (0001ms, 0611ms total)
T0EF8 000:637 JLINK_ReadMemU32(0xE000ED00, 0x0001 Items, ...) -- CPU is running -- CPU_ReadMem(4 bytes @ 0xE000ED00) -- Data:  31 C2 1F 41  returns 0x01 (0001ms, 0612ms total)
T0EF8 000:638 JLINK_SetResetType(JLINKARM_RESET_TYPE_NORMAL)  returns JLINKARM_RESET_TYPE_NORMAL (0000ms, 0613ms total)
T0EF8 000:638 JLINK_Reset() >0x308 JTAG>TotalIRLen = 9, IRPrint = 0x0011 >0x30 JTAG> >0x210 JTAG> >0x80 JTAG> >0x40 JTAG> >0x40 JTAG> >0x50 JTAG> >0x40 JTAG> >0x40 JTAG> >0x40 JTAG> >0x50 JTAG> >0x40 JTAG> >0x50 JTAG> >0x40 JTAG> >0x40 JTAG> >0x40 JTAG> >0x30 JTAG> >0x40 JTAG> >0x50 JTAG> >0x40 JTAG> >0x38 JTAG> >0x80 JTAG> >0x40 JTAG> >0x40 JTAG> >0x50 JTAG> >0x40 JTAG> >0x40 JTAG> >0x40 JTAG> >0x50 JTAG> >0x40 JTAG> >0x40 JTAG> >0x30 JTAG> >0x40 JTAG> >0x40 JTAG> >0x40 JTAG> >0x40 JTAG> >0x40 JTAG>
 >0x50 JTAG> >0x40 JTAG> >0x80 JTAG> >0x40 JTAG> >0x30 JTAG> >0x40 JTAG> >0x40 JTAG> >0x40 JTAG> >0x40 JTAG> >0x40 JTAG> >0x50 JTAG> >0x40 JTAG> >0x80 JTAG> >0x40 JTAG> >0x30 JTAG> >0x40 JTAG> >0x50 JTAG> >0x40 JTAG> >0x40 JTAG> >0x40 JTAG> >0x30 JTAG> >0x40 JTAG> >0x50 JTAG> >0x40 JTAG>Found Cortex-M3 r1p1, Little endian. >0x50 JTAG> >0x50 JTAG> >0x40 JTAG> >0x40 JTAG> >0x30 JTAG> >0x30 JTAG> >0x50 JTAG> >0x40 JTAG> >0x80 JTAG> >0x40 JTAG> >0x30 JTAG> >0x40 JTAG> >0x50 JTAG> >0x40 JTAG> >0x40 JTAG>
 >0x40 JTAG> >0x30 JTAG> >0x40 JTAG> >0x50 JTAG> >0x40 JTAG>TPIU fitted. >0x40 JTAG> >0x40 JTAG> >0x30 JTAG> >0x40 JTAG> >0x50 JTAG> >0x40 JTAG> >0x40 JTAG> >0x40 JTAG> >0x30 JTAG> >0x40 JTAG> >0x50 JTAG> >0x40 JTAG> >0x40 JTAG> >0x40 JTAG> >0x30 JTAG> >0x40 JTAG> >0x50 JTAG> >0x40 JTAG>  FPUnit: 6 code (BP) slots and 2 literal slots >0x40 JTAG> >0x40 JTAG> >0x30 JTAG> >0x40 JTAG> >0x50 JTAG> >0x40 JTAG> >0x40 JTAG> >0x40 JTAG> >0x30 JTAG> >0x40 JTAG> >0x50 JTAG> >0x40 JTAG> >0x48 JTAG> >0x80 JTAG>
 >0x40 JTAG> >0x40 JTAG> >0x50 JTAG> >0x40 JTAG> >0x40 JTAG> >0x40 JTAG> >0x50 JTAG> >0x40 JTAG> >0x40 JTAG> >0x30 JTAG> >0x40 JTAG> >0x40 JTAG> >0x40 JTAG> >0x40 JTAG> >0x40 JTAG> >0x50 JTAG> >0x40 JTAG> >0x80 JTAG> >0x40 JTAG> >0x30 JTAG> >0x40 JTAG> >0x40 JTAG> >0x40 JTAG> >0x40 JTAG> >0x40 JTAG> >0x50 JTAG> >0x40 JTAG> >0x80 JTAG> >0x40 JTAG> >0x30 JTAG> >0x40 JTAG> >0x50 JTAG> >0x40 JTAG> >0x40 JTAG> >0x40 JTAG> >0x30 JTAG> >0x40 JTAG> >0x50 JTAG> >0x40 JTAG>Found Cortex-M3 r1p1, Little endian.
 >0x50 JTAG> >0x50 JTAG> >0x40 JTAG> >0x40 JTAG> >0x30 JTAG> >0x30 JTAG> >0x50 JTAG> >0x40 JTAG> >0x80 JTAG> >0x40 JTAG> >0x30 JTAG> >0x40 JTAG> >0x50 JTAG> >0x40 JTAG> >0x40 JTAG> >0x40 JTAG> >0x30 JTAG> >0x40 JTAG> >0x50 JTAG> >0x40 JTAG>TPIU fitted. >0x40 JTAG> >0x40 JTAG> >0x30 JTAG> >0x40 JTAG> >0x50 JTAG> >0x40 JTAG> >0x40 JTAG> >0x40 JTAG> >0x30 JTAG> >0x40 JTAG> >0x50 JTAG> >0x40 JTAG> >0x40 JTAG> >0x40 JTAG> >0x30 JTAG> >0x40 JTAG> >0x50 JTAG> >0x40 JTAG>
  FPUnit: 6 code (BP) slots and 2 literal slots >0x40 JTAG> >0x40 JTAG> >0x30 JTAG> >0x40 JTAG> >0x50 JTAG> >0x40 JTAG> >0x40 JTAG> >0x40 JTAG> >0x30 JTAG> >0x40 JTAG> >0x50 JTAG> >0x40 JTAG> -- CPU is running -- CPU_WriteMem(4 bytes @ 0xE000EDF0) -- CPU is running -- CPU_WriteMem(4 bytes @ 0xE000EDFC) -- CPU is running -- CPU_WriteMem(4 bytes @ 0xE000ED0C) -- CPU is running -- CPU_ReadMem(4 bytes @ 0xE000EDF0) -- CPU is running -- CPU_ReadMem(4 bytes @ 0xE000EDF0) -- CPU is running
 -- CPU_WriteMem(4 bytes @ 0xE000EDF0) -- CPU is running -- CPU_WriteMem(4 bytes @ 0xE000EDFC) -- CPU is running -- CPU_ReadMem(4 bytes @ 0xE000EDF0) >0x90 JTAG> >0x40 JTAG> >0x30 JTAG> >0x40 JTAG> >0x50 JTAG> >0x40 JTAG> -- CPU_WriteMem(4 bytes @ 0xE000EDFC) -- CPU_WriteMem(4 bytes @ 0xE0001028) -- CPU_WriteMem(4 bytes @ 0xE0001038) -- CPU_WriteMem(4 bytes @ 0xE0001048) -- CPU_WriteMem(4 bytes @ 0xE0001058) (0252ms, 0613ms total)
T0EF8 000:890 JLINK_Halt()  returns 0x00 (0000ms, 0865ms total)
T0EF8 000:891 JLINK_IsHalted()  returns TRUE (0000ms, 0865ms total)
T0EF8 000:891 JLINK_ReadMemU32(0xE000EDF0, 0x0001 Items, ...) -- CPU_ReadMem(4 bytes @ 0xE000EDF0) -- Data:  03 00 03 00  returns 0x01 (0000ms, 0865ms total)
T0EF8 000:891 JLINK_WriteU32(0xE000EDF0, 0xA05F0003) -- CPU_WriteMem(4 bytes @ 0xE000EDF0)  returns 0x00 (0001ms, 0865ms total)
T0EF8 000:892 JLINK_WriteU32(0xE000EDFC, 0x01000000) -- CPU_WriteMem(4 bytes @ 0xE000EDFC)  returns 0x00 (0001ms, 0866ms total)
T0EF8 000:901 JLINK_GetHWStatus(...)  returns 0x00 (0001ms, 0868ms total)
T0EF8 000:908 JLINK_GetNumBPUnits(Type = 0xFFFFFF00)  returns 0x06 (0000ms, 0869ms total)
T0EF8 000:908 JLINK_GetNumBPUnits(Type = 0xF0)  returns 0x2000 (0000ms, 0869ms total)
T0EF8 000:908 JLINK_GetNumWPUnits()  returns 0x04 (0000ms, 0869ms total)
T0EF8 000:912 JLINK_GetSpeed()  returns 0x7D0 (0000ms, 0869ms total)
T0EF8 000:915 JLINK_ReadMemU32(0xE000E004, 0x0001 Items, ...) -- CPU_ReadMem(4 bytes @ 0xE000E004) -- Data:  01 00 00 00  returns 0x01 (0001ms, 0869ms total)
T0EF8 000:916 JLINK_ReadMemU32(0xE000E004, 0x0001 Items, ...) -- CPU_ReadMem(4 bytes @ 0xE000E004) -- Data:  01 00 00 00  returns 0x01 (0001ms, 0870ms total)
T0EF8 000:917 JLINK_WriteMem(0xE0001000, 0x001C Bytes, ...) -- Data:  01 00 00 00 00 00 00 00 00 00 00 00 00 00 00 00 ... -- CPU_WriteMem(28 bytes @ 0xE0001000)  returns 0x1C (0001ms, 0871ms total)
T0EF8 000:918 JLINK_ReadMem (0xE0001000, 0x001C Bytes, ...) -- CPU_ReadMem(28 bytes @ 0xE0001000) -- Data:  01 00 00 40 00 00 00 00 00 00 00 00 00 00 00 00 ...  returns 0x00 (0001ms, 0872ms total)
T0EF8 000:919 JLINK_Halt()  returns 0x00 (0000ms, 0873ms total)
T0EF8 000:919 JLINK_IsHalted()  returns TRUE (0000ms, 0873ms total)
T0EF8 000:921 JLINK_WriteMem(0x20000000, 0x0164 Bytes, ...) -- Data:  00 BE 0A E0 0D 78 2D 06 68 40 08 24 40 00 00 D3 ... -- CPU_WriteMem(356 bytes @ 0x20000000)  returns 0x164 (0003ms, 0873ms total)
T0EF8 000:924 JLINK_WriteReg(R0, 0x08000000)  returns 0x00 (0000ms, 0876ms total)
T0EF8 000:924 JLINK_WriteReg(R1, 0x007A1200)  returns 0x00 (0000ms, 0876ms total)
T0EF8 000:924 JLINK_WriteReg(R2, 0x00000001)  returns 0x00 (0000ms, 0876ms total)
T0EF8 000:924 JLINK_WriteReg(R3, 0x00000000)  returns 0x00 (0000ms, 0876ms total)
T0EF8 000:924 JLINK_WriteReg(R4, 0x00000000)  returns 0x00 (0000ms, 0876ms total)
T0EF8 000:924 JLINK_WriteReg(R5, 0x00000000)  returns 0x00 (0000ms, 0876ms total)
T0EF8 000:924 JLINK_WriteReg(R6, 0x00000000)  returns 0x00 (0000ms, 0876ms total)
T0EF8 000:924 JLINK_WriteReg(R7, 0x00000000)  returns 0x00 (0000ms, 0876ms total)
T0EF8 000:924 JLINK_WriteReg(R8, 0x00000000)  returns 0x00 (0000ms, 0876ms total)
T0EF8 000:924 JLINK_WriteReg(R9, 0x20000160)  returns 0x00 (0000ms, 0876ms total)
T0EF8 000:924 JLINK_WriteReg(R10, 0x00000000)  returns 0x00 (0000ms, 0876ms total)
T0EF8 000:924 JLINK_WriteReg(R11, 0x00000000)  returns 0x00 (0000ms, 0876ms total)
T0EF8 000:924 JLINK_WriteReg(R12, 0x00000000)  returns 0x00 (0000ms, 0876ms total)
T0EF8 000:924 JLINK_WriteReg(R13, 0x20000800)  returns 0x00 (0000ms, 0876ms total)
T0EF8 000:924 JLINK_WriteReg(R14, 0x20000001)  returns 0x00 (0000ms, 0876ms total)
T0EF8 000:924 JLINK_WriteReg(R15, 0x20000038)  returns 0x00 (0000ms, 0876ms total)
T0EF8 000:924 JLINK_WriteReg(XPSR, 0x01000000)  returns 0x00 (0000ms, 0876ms total)
T0EF8 000:924 JLINK_WriteReg(MSP, 0x20000800)  returns 0x00 (0000ms, 0876ms total)
T0EF8 000:924 JLINK_WriteReg(PSP, 0x20000800)  returns 0x00 (0000ms, 0876ms total)
T0EF8 000:924 JLINK_WriteReg(CFBP, 0x00000000)  returns 0x00 (0000ms, 0876ms total)
T0EF8 000:924 JLINK_SetBPEx(Addr = 0x20000000, Type = 0xFFFFFFF2) -- CPU_ReadMem(2 bytes @ 0x20000000)  returns 0x00000001 (0001ms, 0876ms total)
T0EF8 000:925 JLINK_Go() -- CPU_WriteMem(2 bytes @ 0x20000000) -- CPU_WriteMem(4 bytes @ 0xE0002008) -- CPU_WriteMem(4 bytes @ 0xE000200C) -- CPU_WriteMem(4 bytes @ 0xE0002010) -- CPU_WriteMem(4 bytes @ 0xE0002014) -- CPU_WriteMem(4 bytes @ 0xE0002018) -- CPU_WriteMem(4 bytes @ 0xE000201C) (0010ms, 0877ms total)
T0EF8 000:935 JLINK_IsHalted() -- CPU_ReadMem(2 bytes @ 0x20000000)  returns TRUE (0006ms, 0887ms total)
T0EF8 000:941 JLINK_ReadReg(R15)  returns 0x20000000 (0000ms, 0887ms total)
T0EF8 000:941 JLINK_ClrBPEx(BPHandle = 0x00000001)  returns 0x00 (0000ms, 0887ms total)
T0EF8 000:941 JLINK_ReadReg(R0)  returns 0x00000000 (0000ms, 0887ms total)
T0EF8 000:941 JLINK_WriteReg(R0, 0x08000000)  returns 0x00 (0000ms, 0887ms total)
T0EF8 000:941 JLINK_WriteReg(R1, 0x007A1200)  returns 0x00 (0000ms, 0887ms total)
T0EF8 000:941 JLINK_WriteReg(R2, 0x00000001)  returns 0x00 (0000ms, 0887ms total)
T0EF8 000:941 JLINK_WriteReg(R3, 0x00000000)  returns 0x00 (0000ms, 0887ms total)
T0EF8 000:941 JLINK_WriteReg(R4, 0x00000000)  returns 0x00 (0000ms, 0887ms total)
T0EF8 000:941 JLINK_WriteReg(R5, 0x00000000)  returns 0x00 (0000ms, 0887ms total)
T0EF8 000:941 JLINK_WriteReg(R6, 0x00000000)  returns 0x00 (0000ms, 0887ms total)
T0EF8 000:941 JLINK_WriteReg(R7, 0x00000000)  returns 0x00 (0000ms, 0887ms total)
T0EF8 000:941 JLINK_WriteReg(R8, 0x00000000)  returns 0x00 (0000ms, 0887ms total)
T0EF8 000:941 JLINK_WriteReg(R9, 0x20000160)  returns 0x00 (0000ms, 0887ms total)
T0EF8 000:941 JLINK_WriteReg(R10, 0x00000000)  returns 0x00 (0000ms, 0887ms total)
T0EF8 000:941 JLINK_WriteReg(R11, 0x00000000)  returns 0x00 (0000ms, 0887ms total)
T0EF8 000:941 JLINK_WriteReg(R12, 0x00000000)  returns 0x00 (0000ms, 0887ms total)
T0EF8 000:941 JLINK_WriteReg(R13, 0x20000800)  returns 0x00 (0000ms, 0887ms total)
T0EF8 000:941 JLINK_WriteReg(R14, 0x20000001)  returns 0x00 (0000ms, 0887ms total)
T0EF8 000:941 JLINK_WriteReg(R15, 0x2000007C)  returns 0x00 (0000ms, 0887ms total)
T0EF8 000:941 JLINK_WriteReg(XPSR, 0x01000000)  returns 0x00 (0000ms, 0887ms total)
T0EF8 000:941 JLINK_WriteReg(MSP, 0x20000800)  returns 0x00 (0000ms, 0887ms total)
T0EF8 000:941 JLINK_WriteReg(PSP, 0x20000800)  returns 0x00 (0000ms, 0887ms total)
T0EF8 000:941 JLINK_WriteReg(CFBP, 0x00000000)  returns 0x00 (0001ms, 0887ms total)
T0EF8 000:942 JLINK_SetBPEx(Addr = 0x20000000, Type = 0xFFFFFFF2)  returns 0x00000002 (0000ms, 0888ms total)
T0EF8 000:942 JLINK_Go() -- CPU_WriteMem(4 bytes @ 0xE0002008) -- CPU_WriteMem(4 bytes @ 0xE000200C) -- CPU_WriteMem(4 bytes @ 0xE0002010) -- CPU_WriteMem(4 bytes @ 0xE0002014) -- CPU_WriteMem(4 bytes @ 0xE0002018) -- CPU_WriteMem(4 bytes @ 0xE000201C) (0007ms, 0888ms total)
T0EF8 000:949 JLINK_IsHalted()  returns FALSE (0001ms, 0895ms total)
T0EF8 001:000 JLINK_IsHalted() -- CPU_ReadMem(2 bytes @ 0x20000000)  returns TRUE (0006ms, 0895ms total)
T0EF8 001:006 JLINK_ReadReg(R15)  returns 0x20000000 (0001ms, 0895ms total)
T0EF8 001:007 JLINK_ClrBPEx(BPHandle = 0x00000002)  returns 0x00 (0000ms, 0896ms total)
T0EF8 001:007 JLINK_ReadReg(R0)  returns 0x00000000 (0000ms, 0896ms total)
T0EF8 001:057 JLINK_WriteReg(R0, 0x00000001)  returns 0x00 (0000ms, 0896ms total)
T0EF8 001:057 JLINK_WriteReg(R1, 0x007A1200)  returns 0x00 (0000ms, 0896ms total)
T0EF8 001:057 JLINK_WriteReg(R2, 0x00000001)  returns 0x00 (0000ms, 0896ms total)
T0EF8 001:057 JLINK_WriteReg(R3, 0x00000000)  returns 0x00 (0000ms, 0896ms total)
T0EF8 001:057 JLINK_WriteReg(R4, 0x00000000)  returns 0x00 (0000ms, 0896ms total)
T0EF8 001:057 JLINK_WriteReg(R5, 0x00000000)  returns 0x00 (0000ms, 0896ms total)
T0EF8 001:057 JLINK_WriteReg(R6, 0x00000000)  returns 0x00 (0000ms, 0896ms total)
T0EF8 001:057 JLINK_WriteReg(R7, 0x00000000)  returns 0x00 (0000ms, 0896ms total)
T0EF8 001:057 JLINK_WriteReg(R8, 0x00000000)  returns 0x00 (0000ms, 0896ms total)
T0EF8 001:057 JLINK_WriteReg(R9, 0x20000160)  returns 0x00 (0000ms, 0896ms total)
T0EF8 001:057 JLINK_WriteReg(R10, 0x00000000)  returns 0x00 (0000ms, 0896ms total)
T0EF8 001:057 JLINK_WriteReg(R11, 0x00000000)  returns 0x00 (0000ms, 0896ms total)
T0EF8 001:057 JLINK_WriteReg(R12, 0x00000000)  returns 0x00 (0000ms, 0896ms total)
T0EF8 001:057 JLINK_WriteReg(R13, 0x20000800)  returns 0x00 (0000ms, 0896ms total)
T0EF8 001:057 JLINK_WriteReg(R14, 0x20000001)  returns 0x00 (0000ms, 0896ms total)
T0EF8 001:057 JLINK_WriteReg(R15, 0x2000006A)  returns 0x00 (0000ms, 0896ms total)
T0EF8 001:057 JLINK_WriteReg(XPSR, 0x01000000)  returns 0x00 (0000ms, 0896ms total)
T0EF8 001:057 JLINK_WriteReg(MSP, 0x20000800)  returns 0x00 (0000ms, 0896ms total)
T0EF8 001:057 JLINK_WriteReg(PSP, 0x20000800)  returns 0x00 (0000ms, 0896ms total)
T0EF8 001:057 JLINK_WriteReg(CFBP, 0x00000000)  returns 0x00 (0000ms, 0896ms total)
T0EF8 001:057 JLINK_SetBPEx(Addr = 0x20000000, Type = 0xFFFFFFF2)  returns 0x00000003 (0000ms, 0896ms total)
T0EF8 001:057 JLINK_Go() -- CPU_WriteMem(4 bytes @ 0xE0002008) -- CPU_WriteMem(4 bytes @ 0xE000200C) -- CPU_WriteMem(4 bytes @ 0xE0002010) -- CPU_WriteMem(4 bytes @ 0xE0002014) -- CPU_WriteMem(4 bytes @ 0xE0002018) -- CPU_WriteMem(4 bytes @ 0xE000201C) (0009ms, 0896ms total)
T0EF8 001:066 JLINK_IsHalted() -- CPU_ReadMem(2 bytes @ 0x20000000)  returns TRUE (0006ms, 0905ms total)
T0EF8 001:072 JLINK_ReadReg(R15)  returns 0x20000000 (0000ms, 0905ms total)
T0EF8 001:072 JLINK_ClrBPEx(BPHandle = 0x00000003)  returns 0x00 (0000ms, 0905ms total)
T0EF8 001:072 JLINK_ReadReg(R0)  returns 0x00000000 (0000ms, 0905ms total)
T0EF8 001:076 JLINK_WriteMem(0x20000000, 0x0164 Bytes, ...) -- Data:  00 BE 0A E0 0D 78 2D 06 68 40 08 24 40 00 00 D3 ... -- CPU_WriteMem(356 bytes @ 0x20000000)  returns 0x164 (0003ms, 0905ms total)
T0EF8 001:079 JLINK_WriteReg(R0, 0x08000000)  returns 0x00 (0000ms, 0908ms total)
T0EF8 001:079 JLINK_WriteReg(R1, 0x007A1200)  returns 0x00 (0000ms, 0908ms total)
T0EF8 001:079 JLINK_WriteReg(R2, 0x00000002)  returns 0x00 (0000ms, 0908ms total)
T0EF8 001:079 JLINK_WriteReg(R3, 0x00000000)  returns 0x00 (0000ms, 0908ms total)
T0EF8 001:079 JLINK_WriteReg(R4, 0x00000000)  returns 0x00 (0000ms, 0908ms total)
T0EF8 001:079 JLINK_WriteReg(R5, 0x00000000)  returns 0x00 (0000ms, 0908ms total)
T0EF8 001:079 JLINK_WriteReg(R6, 0x00000000)  returns 0x00 (0000ms, 0908ms total)
T0EF8 001:079 JLINK_WriteReg(R7, 0x00000000)  returns 0x00 (0000ms, 0908ms total)
T0EF8 001:079 JLINK_WriteReg(R8, 0x00000000)  returns 0x00 (0000ms, 0908ms total)
T0EF8 001:079 JLINK_WriteReg(R9, 0x20000160)  returns 0x00 (0000ms, 0908ms total)
T0EF8 001:079 JLINK_WriteReg(R10, 0x00000000)  returns 0x00 (0000ms, 0908ms total)
T0EF8 001:079 JLINK_WriteReg(R11, 0x00000000)  returns 0x00 (0000ms, 0908ms total)
T0EF8 001:079 JLINK_WriteReg(R12, 0x00000000)  returns 0x00 (0000ms, 0908ms total)
T0EF8 001:079 JLINK_WriteReg(R13, 0x20000800)  returns 0x00 (0000ms, 0908ms total)
T0EF8 001:079 JLINK_WriteReg(R14, 0x20000001)  returns 0x00 (0000ms, 0908ms total)
T0EF8 001:079 JLINK_WriteReg(R15, 0x20000038)  returns 0x00 (0000ms, 0908ms total)
T0EF8 001:079 JLINK_WriteReg(XPSR, 0x01000000)  returns 0x00 (0000ms, 0908ms total)
T0EF8 001:079 JLINK_WriteReg(MSP, 0x20000800)  returns 0x00 (0000ms, 0908ms total)
T0EF8 001:079 JLINK_WriteReg(PSP, 0x20000800)  returns 0x00 (0000ms, 0908ms total)
T0EF8 001:079 JLINK_WriteReg(CFBP, 0x00000000)  returns 0x00 (0000ms, 0908ms total)
T0EF8 001:079 JLINK_SetBPEx(Addr = 0x20000000, Type = 0xFFFFFFF2) -- CPU_ReadMem(2 bytes @ 0x20000000)  returns 0x00000004 (0001ms, 0908ms total)
T0EF8 001:080 JLINK_Go() -- CPU_WriteMem(2 bytes @ 0x20000000) -- CPU_WriteMem(4 bytes @ 0xE0002008) -- CPU_WriteMem(4 bytes @ 0xE000200C) -- CPU_WriteMem(4 bytes @ 0xE0002010) -- CPU_WriteMem(4 bytes @ 0xE0002014) -- CPU_WriteMem(4 bytes @ 0xE0002018) -- CPU_WriteMem(4 bytes @ 0xE000201C) (0009ms, 0909ms total)
T0EF8 001:089 JLINK_IsHalted() -- CPU_ReadMem(2 bytes @ 0x20000000)  returns TRUE (0006ms, 0918ms total)
T0EF8 001:095 JLINK_ReadReg(R15)  returns 0x20000000 (0000ms, 0918ms total)
T0EF8 001:095 JLINK_ClrBPEx(BPHandle = 0x00000004)  returns 0x00 (0000ms, 0918ms total)
T0EF8 001:095 JLINK_ReadReg(R0)  returns 0x00000000 (0000ms, 0918ms total)
T0EF8 001:095 JLINK_WriteMem(0x20000164, 0x0400 Bytes, ...) -- Data:  D0 26 00 20 9D 01 00 08 01 25 00 08 03 25 00 08 ... -- CPU_WriteMem(1024 bytes @ 0x20000164)  returns 0x400 (0007ms, 0918ms total)
T0EF8 001:102 JLINK_WriteReg(R0, 0x08000000)  returns 0x00 (0000ms, 0925ms total)
T0EF8 001:102 JLINK_WriteReg(R1, 0x00000400)  returns 0x00 (0000ms, 0925ms total)
T0EF8 001:102 JLINK_WriteReg(R2, 0x20000164)  returns 0x00 (0000ms, 0925ms total)
T0EF8 001:102 JLINK_WriteReg(R3, 0x00000000)  returns 0x00 (0000ms, 0925ms total)
T0EF8 001:102 JLINK_WriteReg(R4, 0x00000000)  returns 0x00 (0000ms, 0925ms total)
T0EF8 001:102 JLINK_WriteReg(R5, 0x00000000)  returns 0x00 (0000ms, 0925ms total)
T0EF8 001:102 JLINK_WriteReg(R6, 0x00000000)  returns 0x00 (0000ms, 0925ms total)
T0EF8 001:102 JLINK_WriteReg(R7, 0x00000000)  returns 0x00 (0000ms, 0925ms total)
T0EF8 001:102 JLINK_WriteReg(R8, 0x00000000)  returns 0x00 (0000ms, 0925ms total)
T0EF8 001:102 JLINK_WriteReg(R9, 0x20000160)  returns 0x00 (0000ms, 0925ms total)
T0EF8 001:102 JLINK_WriteReg(R10, 0x00000000)  returns 0x00 (0000ms, 0925ms total)
T0EF8 001:102 JLINK_WriteReg(R11, 0x00000000)  returns 0x00 (0000ms, 0925ms total)
T0EF8 001:102 JLINK_WriteReg(R12, 0x00000000)  returns 0x00 (0000ms, 0925ms total)
T0EF8 001:102 JLINK_WriteReg(R13, 0x20000800)  returns 0x00 (0000ms, 0925ms total)
T0EF8 001:102 JLINK_WriteReg(R14, 0x20000001)  returns 0x00 (0000ms, 0925ms total)
T0EF8 001:102 JLINK_WriteReg(R15, 0x200000F4)  returns 0x00 (0000ms, 0925ms total)
T0EF8 001:102 JLINK_WriteReg(XPSR, 0x01000000)  returns 0x00 (0000ms, 0925ms total)
T0EF8 001:102 JLINK_WriteReg(MSP, 0x20000800)  returns 0x00 (0000ms, 0925ms total)
T0EF8 001:102 JLINK_WriteReg(PSP, 0x20000800)  returns 0x00 (0000ms, 0925ms total)
T0EF8 001:102 JLINK_WriteReg(CFBP, 0x00000000)  returns 0x00 (0000ms, 0925ms total)
T0EF8 001:102 JLINK_SetBPEx(Addr = 0x20000000, Type = 0xFFFFFFF2)  returns 0x00000005 (0000ms, 0925ms total)
T0EF8 001:102 JLINK_Go() -- CPU_WriteMem(4 bytes @ 0xE0002008) -- CPU_WriteMem(4 bytes @ 0xE000200C) -- CPU_WriteMem(4 bytes @ 0xE0002010) -- CPU_WriteMem(4 bytes @ 0xE0002014) -- CPU_WriteMem(4 bytes @ 0xE0002018) -- CPU_WriteMem(4 bytes @ 0xE000201C) (0008ms, 0925ms total)
T0EF8 001:110 JLINK_IsHalted()  returns FALSE (0001ms, 0933ms total)
T0EF8 001:161 JLINK_IsHalted() -- CPU_ReadMem(2 bytes @ 0x20000000)  returns TRUE (0006ms, 0933ms total)
T0EF8 001:167 JLINK_ReadReg(R15)  returns 0x20000000 (0000ms, 0933ms total)
T0EF8 001:167 JLINK_ClrBPEx(BPHandle = 0x00000005)  returns 0x00 (0000ms, 0933ms total)
T0EF8 001:167 JLINK_ReadReg(R0)  returns 0x00000000 (0000ms, 0933ms total)
T0EF8 001:167 JLINK_WriteMem(0x20000164, 0x0400 Bytes, ...) -- Data:  04 F0 1F 05 01 24 AC 40 1B 4D 06 78 76 11 45 F8 ... -- CPU_WriteMem(1024 bytes @ 0x20000164)  returns 0x400 (0006ms, 0933ms total)
T0EF8 001:173 JLINK_WriteReg(R0, 0x08000400)  returns 0x00 (0000ms, 0939ms total)
T0EF8 001:173 JLINK_WriteReg(R1, 0x00000400)  returns 0x00 (0000ms, 0939ms total)
T0EF8 001:173 JLINK_WriteReg(R2, 0x20000164)  returns 0x00 (0000ms, 0939ms total)
T0EF8 001:173 JLINK_WriteReg(R3, 0x00000000)  returns 0x00 (0001ms, 0939ms total)
T0EF8 001:174 JLINK_WriteReg(R4, 0x00000000)  returns 0x00 (0000ms, 0940ms total)
T0EF8 001:174 JLINK_WriteReg(R5, 0x00000000)  returns 0x00 (0000ms, 0940ms total)
T0EF8 001:174 JLINK_WriteReg(R6, 0x00000000)  returns 0x00 (0000ms, 0940ms total)
T0EF8 001:174 JLINK_WriteReg(R7, 0x00000000)  returns 0x00 (0000ms, 0940ms total)
T0EF8 001:174 JLINK_WriteReg(R8, 0x00000000)  returns 0x00 (0000ms, 0940ms total)
T0EF8 001:174 JLINK_WriteReg(R9, 0x20000160)  returns 0x00 (0000ms, 0940ms total)
T0EF8 001:174 JLINK_WriteReg(R10, 0x00000000)  returns 0x00 (0000ms, 0940ms total)
T0EF8 001:174 JLINK_WriteReg(R11, 0x00000000)  returns 0x00 (0000ms, 0940ms total)
T0EF8 001:174 JLINK_WriteReg(R12, 0x00000000)  returns 0x00 (0000ms, 0940ms total)
T0EF8 001:174 JLINK_WriteReg(R13, 0x20000800)  returns 0x00 (0000ms, 0940ms total)
T0EF8 001:174 JLINK_WriteReg(R14, 0x20000001)  returns 0x00 (0000ms, 0940ms total)
T0EF8 001:174 JLINK_WriteReg(R15, 0x200000F4)  returns 0x00 (0000ms, 0940ms total)
T0EF8 001:174 JLINK_WriteReg(XPSR, 0x01000000)  returns 0x00 (0000ms, 0940ms total)
T0EF8 001:174 JLINK_WriteReg(MSP, 0x20000800)  returns 0x00 (0000ms, 0940ms total)
T0EF8 001:174 JLINK_WriteReg(PSP, 0x20000800)  returns 0x00 (0000ms, 0940ms total)
T0EF8 001:174 JLINK_WriteReg(CFBP, 0x00000000)  returns 0x00 (0000ms, 0940ms total)
T0EF8 001:174 JLINK_SetBPEx(Addr = 0x20000000, Type = 0xFFFFFFF2)  returns 0x00000006 (0000ms, 0940ms total)
T0EF8 001:174 JLINK_Go() -- CPU_WriteMem(4 bytes @ 0xE0002008) -- CPU_WriteMem(4 bytes @ 0xE000200C) -- CPU_WriteMem(4 bytes @ 0xE0002010) -- CPU_WriteMem(4 bytes @ 0xE0002014) -- CPU_WriteMem(4 bytes @ 0xE0002018) -- CPU_WriteMem(4 bytes @ 0xE000201C) (0007ms, 0940ms total)
T0EF8 001:181 JLINK_IsHalted()  returns FALSE (0001ms, 0947ms total)
T0EF8 001:232 JLINK_IsHalted() -- CPU_ReadMem(2 bytes @ 0x20000000)  returns TRUE (0006ms, 0947ms total)
T0EF8 001:238 JLINK_ReadReg(R15)  returns 0x20000000 (0000ms, 0947ms total)
T0EF8 001:238 JLINK_ClrBPEx(BPHandle = 0x00000006)  returns 0x00 (0000ms, 0947ms total)
T0EF8 001:238 JLINK_ReadReg(R0)  returns 0x00000000 (0000ms, 0947ms total)
T0EF8 001:239 JLINK_WriteMem(0x20000164, 0x0400 Bytes, ...) -- Data:  00 23 13 46 01 F1 28 00 03 44 18 68 80 B2 70 47 ... -- CPU_WriteMem(1024 bytes @ 0x20000164)  returns 0x400 (0006ms, 0947ms total)
T0EF8 001:245 JLINK_WriteReg(R0, 0x08000800)  returns 0x00 (0000ms, 0953ms total)
T0EF8 001:245 JLINK_WriteReg(R1, 0x00000400)  returns 0x00 (0000ms, 0953ms total)
T0EF8 001:245 JLINK_WriteReg(R2, 0x20000164)  returns 0x00 (0000ms, 0953ms total)
T0EF8 001:245 JLINK_WriteReg(R3, 0x00000000)  returns 0x00 (0000ms, 0953ms total)
T0EF8 001:245 JLINK_WriteReg(R4, 0x00000000)  returns 0x00 (0000ms, 0953ms total)
T0EF8 001:245 JLINK_WriteReg(R5, 0x00000000)  returns 0x00 (0000ms, 0953ms total)
T0EF8 001:245 JLINK_WriteReg(R6, 0x00000000)  returns 0x00 (0000ms, 0953ms total)
T0EF8 001:245 JLINK_WriteReg(R7, 0x00000000)  returns 0x00 (0000ms, 0953ms total)
T0EF8 001:245 JLINK_WriteReg(R8, 0x00000000)  returns 0x00 (0000ms, 0953ms total)
T0EF8 001:245 JLINK_WriteReg(R9, 0x20000160)  returns 0x00 (0000ms, 0953ms total)
T0EF8 001:245 JLINK_WriteReg(R10, 0x00000000)  returns 0x00 (0000ms, 0953ms total)
T0EF8 001:245 JLINK_WriteReg(R11, 0x00000000)  returns 0x00 (0000ms, 0953ms total)
T0EF8 001:245 JLINK_WriteReg(R12, 0x00000000)  returns 0x00 (0000ms, 0953ms total)
T0EF8 001:245 JLINK_WriteReg(R13, 0x20000800)  returns 0x00 (0000ms, 0953ms total)
T0EF8 001:245 JLINK_WriteReg(R14, 0x20000001)  returns 0x00 (0000ms, 0953ms total)
T0EF8 001:245 JLINK_WriteReg(R15, 0x200000F4)  returns 0x00 (0000ms, 0953ms total)
T0EF8 001:245 JLINK_WriteReg(XPSR, 0x01000000)  returns 0x00 (0000ms, 0953ms total)
T0EF8 001:245 JLINK_WriteReg(MSP, 0x20000800)  returns 0x00 (0000ms, 0953ms total)
T0EF8 001:245 JLINK_WriteReg(PSP, 0x20000800)  returns 0x00 (0000ms, 0953ms total)
T0EF8 001:245 JLINK_WriteReg(CFBP, 0x00000000)  returns 0x00 (0000ms, 0953ms total)
T0EF8 001:245 JLINK_SetBPEx(Addr = 0x20000000, Type = 0xFFFFFFF2)  returns 0x00000007 (0000ms, 0953ms total)
T0EF8 001:245 JLINK_Go() -- CPU_WriteMem(4 bytes @ 0xE0002008) -- CPU_WriteMem(4 bytes @ 0xE000200C) -- CPU_WriteMem(4 bytes @ 0xE0002010) -- CPU_WriteMem(4 bytes @ 0xE0002014) -- CPU_WriteMem(4 bytes @ 0xE0002018) -- CPU_WriteMem(4 bytes @ 0xE000201C) (0008ms, 0953ms total)
T0EF8 001:253 JLINK_IsHalted()  returns FALSE (0001ms, 0961ms total)
T0EF8 001:304 JLINK_IsHalted() -- CPU_ReadMem(2 bytes @ 0x20000000)  returns TRUE (0006ms, 0961ms total)
T0EF8 001:310 JLINK_ReadReg(R15)  returns 0x20000000 (0000ms, 0961ms total)
T0EF8 001:310 JLINK_ClrBPEx(BPHandle = 0x00000007)  returns 0x00 (0000ms, 0961ms total)
T0EF8 001:310 JLINK_ReadReg(R0)  returns 0x00000000 (0000ms, 0961ms total)
T0EF8 001:310 JLINK_WriteMem(0x20000164, 0x0400 Bytes, ...) -- Data:  31 D0 14 68 00 20 2B E0 4F F0 01 0C 0C FA 00 F3 ... -- CPU_WriteMem(1024 bytes @ 0x20000164)  returns 0x400 (0006ms, 0961ms total)
T0EF8 001:316 JLINK_WriteReg(R0, 0x08000C00)  returns 0x00 (0001ms, 0967ms total)
T0EF8 001:317 JLINK_WriteReg(R1, 0x00000400)  returns 0x00 (0000ms, 0968ms total)
T0EF8 001:317 JLINK_WriteReg(R2, 0x20000164)  returns 0x00 (0000ms, 0968ms total)
T0EF8 001:317 JLINK_WriteReg(R3, 0x00000000)  returns 0x00 (0000ms, 0968ms total)
T0EF8 001:317 JLINK_WriteReg(R4, 0x00000000)  returns 0x00 (0000ms, 0968ms total)
T0EF8 001:317 JLINK_WriteReg(R5, 0x00000000)  returns 0x00 (0000ms, 0968ms total)
T0EF8 001:317 JLINK_WriteReg(R6, 0x00000000)  returns 0x00 (0000ms, 0968ms total)
T0EF8 001:317 JLINK_WriteReg(R7, 0x00000000)  returns 0x00 (0000ms, 0968ms total)
T0EF8 001:317 JLINK_WriteReg(R8, 0x00000000)  returns 0x00 (0000ms, 0968ms total)
T0EF8 001:317 JLINK_WriteReg(R9, 0x20000160)  returns 0x00 (0000ms, 0968ms total)
T0EF8 001:317 JLINK_WriteReg(R10, 0x00000000)  returns 0x00 (0000ms, 0968ms total)
T0EF8 001:317 JLINK_WriteReg(R11, 0x00000000)  returns 0x00 (0000ms, 0968ms total)
T0EF8 001:317 JLINK_WriteReg(R12, 0x00000000)  returns 0x00 (0000ms, 0968ms total)
T0EF8 001:317 JLINK_WriteReg(R13, 0x20000800)  returns 0x00 (0000ms, 0968ms total)
T0EF8 001:317 JLINK_WriteReg(R14, 0x20000001)  returns 0x00 (0000ms, 0968ms total)
T0EF8 001:317 JLINK_WriteReg(R15, 0x200000F4)  returns 0x00 (0000ms, 0968ms total)
T0EF8 001:317 JLINK_WriteReg(XPSR, 0x01000000)  returns 0x00 (0000ms, 0968ms total)
T0EF8 001:317 JLINK_WriteReg(MSP, 0x20000800)  returns 0x00 (0000ms, 0968ms total)
T0EF8 001:317 JLINK_WriteReg(PSP, 0x20000800)  returns 0x00 (0000ms, 0968ms total)
T0EF8 001:317 JLINK_WriteReg(CFBP, 0x00000000)  returns 0x00 (0000ms, 0968ms total)
T0EF8 001:317 JLINK_SetBPEx(Addr = 0x20000000, Type = 0xFFFFFFF2)  returns 0x00000008 (0000ms, 0968ms total)
T0EF8 001:317 JLINK_Go() -- CPU_WriteMem(4 bytes @ 0xE0002008) -- CPU_WriteMem(4 bytes @ 0xE000200C) -- CPU_WriteMem(4 bytes @ 0xE0002010) -- CPU_WriteMem(4 bytes @ 0xE0002014) -- CPU_WriteMem(4 bytes @ 0xE0002018) -- CPU_WriteMem(4 bytes @ 0xE000201C) (0007ms, 0968ms total)
T0EF8 001:324 JLINK_IsHalted()  returns FALSE (0001ms, 0975ms total)
T0EF8 001:375 JLINK_IsHalted() -- CPU_ReadMem(2 bytes @ 0x20000000)  returns TRUE (0006ms, 0975ms total)
T0EF8 001:381 JLINK_ReadReg(R15)  returns 0x20000000 (0000ms, 0975ms total)
T0EF8 001:381 JLINK_ClrBPEx(BPHandle = 0x00000008)  returns 0x00 (0000ms, 0975ms total)
T0EF8 001:381 JLINK_ReadReg(R0)  returns 0x00000000 (0000ms, 0975ms total)
T0EF8 001:381 JLINK_WriteMem(0x20000164, 0x0400 Bytes, ...) -- Data:  70 47 01 46 00 20 74 4A 50 68 20 F4 40 40 08 43 ... -- CPU_WriteMem(1024 bytes @ 0x20000164)  returns 0x400 (0006ms, 0975ms total)
T0EF8 001:387 JLINK_WriteReg(R0, 0x08001000)  returns 0x00 (0000ms, 0981ms total)
T0EF8 001:387 JLINK_WriteReg(R1, 0x00000400)  returns 0x00 (0000ms, 0981ms total)
T0EF8 001:387 JLINK_WriteReg(R2, 0x20000164)  returns 0x00 (0001ms, 0981ms total)
T0EF8 001:388 JLINK_WriteReg(R3, 0x00000000)  returns 0x00 (0000ms, 0982ms total)
T0EF8 001:388 JLINK_WriteReg(R4, 0x00000000)  returns 0x00 (0000ms, 0982ms total)
T0EF8 001:388 JLINK_WriteReg(R5, 0x00000000)  returns 0x00 (0000ms, 0982ms total)
T0EF8 001:388 JLINK_WriteReg(R6, 0x00000000)  returns 0x00 (0000ms, 0982ms total)
T0EF8 001:388 JLINK_WriteReg(R7, 0x00000000)  returns 0x00 (0000ms, 0982ms total)
T0EF8 001:388 JLINK_WriteReg(R8, 0x00000000)  returns 0x00 (0000ms, 0982ms total)
T0EF8 001:388 JLINK_WriteReg(R9, 0x20000160)  returns 0x00 (0000ms, 0982ms total)
T0EF8 001:388 JLINK_WriteReg(R10, 0x00000000)  returns 0x00 (0000ms, 0982ms total)
T0EF8 001:388 JLINK_WriteReg(R11, 0x00000000)  returns 0x00 (0000ms, 0982ms total)
T0EF8 001:388 JLINK_WriteReg(R12, 0x00000000)  returns 0x00 (0000ms, 0982ms total)
T0EF8 001:388 JLINK_WriteReg(R13, 0x20000800)  returns 0x00 (0000ms, 0982ms total)
T0EF8 001:388 JLINK_WriteReg(R14, 0x20000001)  returns 0x00 (0000ms, 0982ms total)
T0EF8 001:388 JLINK_WriteReg(R15, 0x200000F4)  returns 0x00 (0000ms, 0982ms total)
T0EF8 001:388 JLINK_WriteReg(XPSR, 0x01000000)  returns 0x00 (0000ms, 0982ms total)
T0EF8 001:388 JLINK_WriteReg(MSP, 0x20000800)  returns 0x00 (0000ms, 0982ms total)
T0EF8 001:388 JLINK_WriteReg(PSP, 0x20000800)  returns 0x00 (0000ms, 0982ms total)
T0EF8 001:388 JLINK_WriteReg(CFBP, 0x00000000)  returns 0x00 (0000ms, 0982ms total)
T0EF8 001:388 JLINK_SetBPEx(Addr = 0x20000000, Type = 0xFFFFFFF2)  returns 0x00000009 (0000ms, 0982ms total)
T0EF8 001:388 JLINK_Go() -- CPU_WriteMem(4 bytes @ 0xE0002008) -- CPU_WriteMem(4 bytes @ 0xE000200C) -- CPU_WriteMem(4 bytes @ 0xE0002010) -- CPU_WriteMem(4 bytes @ 0xE0002014) -- CPU_WriteMem(4 bytes @ 0xE0002018) -- CPU_WriteMem(4 bytes @ 0xE000201C) (0007ms, 0982ms total)
T0EF8 001:395 JLINK_IsHalted()  returns FALSE (0001ms, 0989ms total)
T0EF8 001:446 JLINK_IsHalted() -- CPU_ReadMem(2 bytes @ 0x20000000)  returns TRUE (0006ms, 0989ms total)
T0EF8 001:452 JLINK_ReadReg(R15)  returns 0x20000000 (0000ms, 0989ms total)
T0EF8 001:452 JLINK_ClrBPEx(BPHandle = 0x00000009)  returns 0x00 (0000ms, 0989ms total)
T0EF8 001:452 JLINK_ReadReg(R0)  returns 0x00000000 (0000ms, 0989ms total)
T0EF8 001:452 JLINK_WriteMem(0x20000164, 0x0400 Bytes, ...) -- Data:  98 42 0B D0 85 4B 98 42 08 D0 8B 4B 98 42 05 D0 ... -- CPU_WriteMem(1024 bytes @ 0x20000164)  returns 0x400 (0006ms, 0989ms total)
T0EF8 001:458 JLINK_WriteReg(R0, 0x08001400)  returns 0x00 (0000ms, 0995ms total)
T0EF8 001:458 JLINK_WriteReg(R1, 0x00000400)  returns 0x00 (0000ms, 0995ms total)
T0EF8 001:458 JLINK_WriteReg(R2, 0x20000164)  returns 0x00 (0000ms, 0995ms total)
T0EF8 001:458 JLINK_WriteReg(R3, 0x00000000)  returns 0x00 (0001ms, 0995ms total)
T0EF8 001:459 JLINK_WriteReg(R4, 0x00000000)  returns 0x00 (0000ms, 0996ms total)
T0EF8 001:459 JLINK_WriteReg(R5, 0x00000000)  returns 0x00 (0000ms, 0996ms total)
T0EF8 001:459 JLINK_WriteReg(R6, 0x00000000)  returns 0x00 (0000ms, 0996ms total)
T0EF8 001:459 JLINK_WriteReg(R7, 0x00000000)  returns 0x00 (0000ms, 0996ms total)
T0EF8 001:459 JLINK_WriteReg(R8, 0x00000000)  returns 0x00 (0000ms, 0996ms total)
T0EF8 001:459 JLINK_WriteReg(R9, 0x20000160)  returns 0x00 (0000ms, 0996ms total)
T0EF8 001:459 JLINK_WriteReg(R10, 0x00000000)  returns 0x00 (0000ms, 0996ms total)
T0EF8 001:459 JLINK_WriteReg(R11, 0x00000000)  returns 0x00 (0000ms, 0996ms total)
T0EF8 001:459 JLINK_WriteReg(R12, 0x00000000)  returns 0x00 (0000ms, 0996ms total)
T0EF8 001:459 JLINK_WriteReg(R13, 0x20000800)  returns 0x00 (0000ms, 0996ms total)
T0EF8 001:459 JLINK_WriteReg(R14, 0x20000001)  returns 0x00 (0000ms, 0996ms total)
T0EF8 001:459 JLINK_WriteReg(R15, 0x200000F4)  returns 0x00 (0000ms, 0996ms total)
T0EF8 001:459 JLINK_WriteReg(XPSR, 0x01000000)  returns 0x00 (0000ms, 0996ms total)
T0EF8 001:459 JLINK_WriteReg(MSP, 0x20000800)  returns 0x00 (0000ms, 0996ms total)
T0EF8 001:459 JLINK_WriteReg(PSP, 0x20000800)  returns 0x00 (0000ms, 0996ms total)
T0EF8 001:459 JLINK_WriteReg(CFBP, 0x00000000)  returns 0x00 (0000ms, 0996ms total)
T0EF8 001:459 JLINK_SetBPEx(Addr = 0x20000000, Type = 0xFFFFFFF2)  returns 0x0000000A (0000ms, 0996ms total)
T0EF8 001:459 JLINK_Go() -- CPU_WriteMem(4 bytes @ 0xE0002008) -- CPU_WriteMem(4 bytes @ 0xE000200C) -- CPU_WriteMem(4 bytes @ 0xE0002010) -- CPU_WriteMem(4 bytes @ 0xE0002014) -- CPU_WriteMem(4 bytes @ 0xE0002018) -- CPU_WriteMem(4 bytes @ 0xE000201C) (0007ms, 0996ms total)
T0EF8 001:466 JLINK_IsHalted()  returns FALSE (0001ms, 1003ms total)
T0EF8 001:517 JLINK_IsHalted() -- CPU_ReadMem(2 bytes @ 0x20000000)  returns TRUE (0006ms, 1003ms total)
T0EF8 001:523 JLINK_ReadReg(R15)  returns 0x20000000 (0000ms, 1003ms total)
T0EF8 001:523 JLINK_ClrBPEx(BPHandle = 0x0000000A)  returns 0x00 (0000ms, 1003ms total)
T0EF8 001:523 JLINK_ReadReg(R0)  returns 0x00000000 (0000ms, 1003ms total)
T0EF8 001:523 JLINK_WriteMem(0x20000164, 0x0400 Bytes, ...) -- Data:  05 E0 4F F6 5F 77 39 40 44 F0 10 07 39 43 02 83 ... -- CPU_WriteMem(1024 bytes @ 0x20000164)  returns 0x400 (0006ms, 1003ms total)
T0EF8 001:529 JLINK_WriteReg(R0, 0x08001800)  returns 0x00 (0001ms, 1009ms total)
T0EF8 001:530 JLINK_WriteReg(R1, 0x00000400)  returns 0x00 (0000ms, 1010ms total)
T0EF8 001:530 JLINK_WriteReg(R2, 0x20000164)  returns 0x00 (0000ms, 1010ms total)
T0EF8 001:530 JLINK_WriteReg(R3, 0x00000000)  returns 0x00 (0000ms, 1010ms total)
T0EF8 001:530 JLINK_WriteReg(R4, 0x00000000)  returns 0x00 (0000ms, 1010ms total)
T0EF8 001:530 JLINK_WriteReg(R5, 0x00000000)  returns 0x00 (0000ms, 1010ms total)
T0EF8 001:530 JLINK_WriteReg(R6, 0x00000000)  returns 0x00 (0000ms, 1010ms total)
T0EF8 001:530 JLINK_WriteReg(R7, 0x00000000)  returns 0x00 (0000ms, 1010ms total)
T0EF8 001:530 JLINK_WriteReg(R8, 0x00000000)  returns 0x00 (0000ms, 1010ms total)
T0EF8 001:530 JLINK_WriteReg(R9, 0x20000160)  returns 0x00 (0000ms, 1010ms total)
T0EF8 001:530 JLINK_WriteReg(R10, 0x00000000)  returns 0x00 (0000ms, 1010ms total)
T0EF8 001:530 JLINK_WriteReg(R11, 0x00000000)  returns 0x00 (0000ms, 1010ms total)
T0EF8 001:530 JLINK_WriteReg(R12, 0x00000000)  returns 0x00 (0000ms, 1010ms total)
T0EF8 001:530 JLINK_WriteReg(R13, 0x20000800)  returns 0x00 (0000ms, 1010ms total)
T0EF8 001:530 JLINK_WriteReg(R14, 0x20000001)  returns 0x00 (0000ms, 1010ms total)
T0EF8 001:530 JLINK_WriteReg(R15, 0x200000F4)  returns 0x00 (0000ms, 1010ms total)
T0EF8 001:530 JLINK_WriteReg(XPSR, 0x01000000)  returns 0x00 (0000ms, 1010ms total)
T0EF8 001:530 JLINK_WriteReg(MSP, 0x20000800)  returns 0x00 (0000ms, 1010ms total)
T0EF8 001:530 JLINK_WriteReg(PSP, 0x20000800)  returns 0x00 (0000ms, 1010ms total)
T0EF8 001:530 JLINK_WriteReg(CFBP, 0x00000000)  returns 0x00 (0000ms, 1010ms total)
T0EF8 001:530 JLINK_SetBPEx(Addr = 0x20000000, Type = 0xFFFFFFF2)  returns 0x0000000B (0000ms, 1010ms total)
T0EF8 001:530 JLINK_Go() -- CPU_WriteMem(4 bytes @ 0xE0002008) -- CPU_WriteMem(4 bytes @ 0xE000200C) -- CPU_WriteMem(4 bytes @ 0xE0002010) -- CPU_WriteMem(4 bytes @ 0xE0002014) -- CPU_WriteMem(4 bytes @ 0xE0002018) -- CPU_WriteMem(4 bytes @ 0xE000201C) (0007ms, 1010ms total)
T0EF8 001:537 JLINK_IsHalted()  returns FALSE (0001ms, 1017ms total)
T0EF8 001:588 JLINK_IsHalted() -- CPU_ReadMem(2 bytes @ 0x20000000)  returns TRUE (0006ms, 1017ms total)
T0EF8 001:594 JLINK_ReadReg(R15)  returns 0x20000000 (0000ms, 1017ms total)
T0EF8 001:594 JLINK_ClrBPEx(BPHandle = 0x0000000B)  returns 0x00 (0000ms, 1017ms total)
T0EF8 001:594 JLINK_ReadReg(R0)  returns 0x00000000 (0000ms, 1017ms total)
T0EF8 001:594 JLINK_WriteMem(0x20000164, 0x0400 Bytes, ...) -- Data:  11 43 81 83 70 47 0A 46 00 21 81 8B 48 F6 FF 73 ... -- CPU_WriteMem(1024 bytes @ 0x20000164)  returns 0x400 (0006ms, 1017ms total)
T0EF8 001:600 JLINK_WriteReg(R0, 0x08001C00)  returns 0x00 (0000ms, 1023ms total)
T0EF8 001:600 JLINK_WriteReg(R1, 0x00000400)  returns 0x00 (0000ms, 1023ms total)
T0EF8 001:600 JLINK_WriteReg(R2, 0x20000164)  returns 0x00 (0000ms, 1023ms total)
T0EF8 001:600 JLINK_WriteReg(R3, 0x00000000)  returns 0x00 (0000ms, 1023ms total)
T0EF8 001:600 JLINK_WriteReg(R4, 0x00000000)  returns 0x00 (0000ms, 1023ms total)
T0EF8 001:600 JLINK_WriteReg(R5, 0x00000000)  returns 0x00 (0000ms, 1023ms total)
T0EF8 001:600 JLINK_WriteReg(R6, 0x00000000)  returns 0x00 (0000ms, 1023ms total)
T0EF8 001:600 JLINK_WriteReg(R7, 0x00000000)  returns 0x00 (0000ms, 1023ms total)
T0EF8 001:600 JLINK_WriteReg(R8, 0x00000000)  returns 0x00 (0001ms, 1023ms total)
T0EF8 001:601 JLINK_WriteReg(R9, 0x20000160)  returns 0x00 (0000ms, 1024ms total)
T0EF8 001:601 JLINK_WriteReg(R10, 0x00000000)  returns 0x00 (0000ms, 1024ms total)
T0EF8 001:601 JLINK_WriteReg(R11, 0x00000000)  returns 0x00 (0000ms, 1024ms total)
T0EF8 001:601 JLINK_WriteReg(R12, 0x00000000)  returns 0x00 (0000ms, 1024ms total)
T0EF8 001:601 JLINK_WriteReg(R13, 0x20000800)  returns 0x00 (0000ms, 1024ms total)
T0EF8 001:601 JLINK_WriteReg(R14, 0x20000001)  returns 0x00 (0000ms, 1024ms total)
T0EF8 001:601 JLINK_WriteReg(R15, 0x200000F4)  returns 0x00 (0000ms, 1024ms total)
T0EF8 001:601 JLINK_WriteReg(XPSR, 0x01000000)  returns 0x00 (0000ms, 1024ms total)
T0EF8 001:601 JLINK_WriteReg(MSP, 0x20000800)  returns 0x00 (0000ms, 1024ms total)
T0EF8 001:601 JLINK_WriteReg(PSP, 0x20000800)  returns 0x00 (0000ms, 1024ms total)
T0EF8 001:601 JLINK_WriteReg(CFBP, 0x00000000)  returns 0x00 (0000ms, 1024ms total)
T0EF8 001:601 JLINK_SetBPEx(Addr = 0x20000000, Type = 0xFFFFFFF2)  returns 0x0000000C (0000ms, 1024ms total)
T0EF8 001:601 JLINK_Go() -- CPU_WriteMem(4 bytes @ 0xE0002008) -- CPU_WriteMem(4 bytes @ 0xE000200C) -- CPU_WriteMem(4 bytes @ 0xE0002010) -- CPU_WriteMem(4 bytes @ 0xE0002014) -- CPU_WriteMem(4 bytes @ 0xE0002018) -- CPU_WriteMem(4 bytes @ 0xE000201C) (0007ms, 1024ms total)
T0EF8 001:608 JLINK_IsHalted()  returns FALSE (0001ms, 1031ms total)
T0EF8 001:659 JLINK_IsHalted() -- CPU_ReadMem(2 bytes @ 0x20000000)  returns TRUE (0006ms, 1031ms total)
T0EF8 001:665 JLINK_ReadReg(R15)  returns 0x20000000 (0000ms, 1031ms total)
T0EF8 001:665 JLINK_ClrBPEx(BPHandle = 0x0000000C)  returns 0x00 (0000ms, 1031ms total)
T0EF8 001:665 JLINK_ReadReg(R0)  returns 0x00000000 (0000ms, 1031ms total)
T0EF8 001:665 JLINK_WriteMem(0x20000164, 0x0400 Bytes, ...) -- Data:  FF F7 BF F8 18 E0 EC 48 84 42 09 D1 01 21 C8 04 ... -- CPU_WriteMem(1024 bytes @ 0x20000164)  returns 0x400 (0006ms, 1031ms total)
T0EF8 001:671 JLINK_WriteReg(R0, 0x08002000)  returns 0x00 (0000ms, 1037ms total)
T0EF8 001:671 JLINK_WriteReg(R1, 0x00000400)  returns 0x00 (0000ms, 1037ms total)
T0EF8 001:671 JLINK_WriteReg(R2, 0x20000164)  returns 0x00 (0000ms, 1037ms total)
T0EF8 001:671 JLINK_WriteReg(R3, 0x00000000)  returns 0x00 (0000ms, 1037ms total)
T0EF8 001:671 JLINK_WriteReg(R4, 0x00000000)  returns 0x00 (0000ms, 1037ms total)
T0EF8 001:671 JLINK_WriteReg(R5, 0x00000000)  returns 0x00 (0000ms, 1037ms total)
T0EF8 001:671 JLINK_WriteReg(R6, 0x00000000)  returns 0x00 (0000ms, 1037ms total)
T0EF8 001:671 JLINK_WriteReg(R7, 0x00000000)  returns 0x00 (0000ms, 1037ms total)
T0EF8 001:671 JLINK_WriteReg(R8, 0x00000000)  returns 0x00 (0000ms, 1037ms total)
T0EF8 001:671 JLINK_WriteReg(R9, 0x20000160)  returns 0x00 (0001ms, 1037ms total)
T0EF8 001:672 JLINK_WriteReg(R10, 0x00000000)  returns 0x00 (0000ms, 1038ms total)
T0EF8 001:672 JLINK_WriteReg(R11, 0x00000000)  returns 0x00 (0000ms, 1038ms total)
T0EF8 001:672 JLINK_WriteReg(R12, 0x00000000)  returns 0x00 (0000ms, 1038ms total)
T0EF8 001:672 JLINK_WriteReg(R13, 0x20000800)  returns 0x00 (0000ms, 1038ms total)
T0EF8 001:672 JLINK_WriteReg(R14, 0x20000001)  returns 0x00 (0000ms, 1038ms total)
T0EF8 001:672 JLINK_WriteReg(R15, 0x200000F4)  returns 0x00 (0000ms, 1038ms total)
T0EF8 001:672 JLINK_WriteReg(XPSR, 0x01000000)  returns 0x00 (0000ms, 1038ms total)
T0EF8 001:672 JLINK_WriteReg(MSP, 0x20000800)  returns 0x00 (0000ms, 1038ms total)
T0EF8 001:672 JLINK_WriteReg(PSP, 0x20000800)  returns 0x00 (0000ms, 1038ms total)
T0EF8 001:672 JLINK_WriteReg(CFBP, 0x00000000)  returns 0x00 (0000ms, 1038ms total)
T0EF8 001:672 JLINK_SetBPEx(Addr = 0x20000000, Type = 0xFFFFFFF2)  returns 0x0000000D (0000ms, 1038ms total)
T0EF8 001:672 JLINK_Go() -- CPU_WriteMem(4 bytes @ 0xE0002008) -- CPU_WriteMem(4 bytes @ 0xE000200C) -- CPU_WriteMem(4 bytes @ 0xE0002010) -- CPU_WriteMem(4 bytes @ 0xE0002014) -- CPU_WriteMem(4 bytes @ 0xE0002018) -- CPU_WriteMem(4 bytes @ 0xE000201C) (0007ms, 1038ms total)
T0EF8 001:679 JLINK_IsHalted()  returns FALSE (0001ms, 1045ms total)
T0EF8 001:730 JLINK_IsHalted() -- CPU_ReadMem(2 bytes @ 0x20000000)  returns TRUE (0006ms, 1045ms total)
T0EF8 001:736 JLINK_ReadReg(R15)  returns 0x20000000 (0000ms, 1045ms total)
T0EF8 001:736 JLINK_ClrBPEx(BPHandle = 0x0000000D)  returns 0x00 (0000ms, 1045ms total)
T0EF8 001:736 JLINK_ReadReg(R0)  returns 0x00000000 (0000ms, 1045ms total)
T0EF8 001:736 JLINK_WriteMem(0x20000164, 0x0400 Bytes, ...) -- Data:  00 F0 A0 FD 29 E0 3B 48 00 68 B0 F5 7A 7F 24 DD ... -- CPU_WriteMem(1024 bytes @ 0x20000164)  returns 0x400 (0006ms, 1045ms total)
T0EF8 001:742 JLINK_WriteReg(R0, 0x08002400)  returns 0x00 (0000ms, 1051ms total)
T0EF8 001:742 JLINK_WriteReg(R1, 0x00000400)  returns 0x00 (0000ms, 1051ms total)
T0EF8 001:742 JLINK_WriteReg(R2, 0x20000164)  returns 0x00 (0001ms, 1051ms total)
T0EF8 001:743 JLINK_WriteReg(R3, 0x00000000)  returns 0x00 (0000ms, 1052ms total)
T0EF8 001:743 JLINK_WriteReg(R4, 0x00000000)  returns 0x00 (0000ms, 1052ms total)
T0EF8 001:743 JLINK_WriteReg(R5, 0x00000000)  returns 0x00 (0000ms, 1052ms total)
T0EF8 001:743 JLINK_WriteReg(R6, 0x00000000)  returns 0x00 (0000ms, 1052ms total)
T0EF8 001:743 JLINK_WriteReg(R7, 0x00000000)  returns 0x00 (0000ms, 1052ms total)
T0EF8 001:743 JLINK_WriteReg(R8, 0x00000000)  returns 0x00 (0000ms, 1052ms total)
T0EF8 001:743 JLINK_WriteReg(R9, 0x20000160)  returns 0x00 (0000ms, 1052ms total)
T0EF8 001:743 JLINK_WriteReg(R10, 0x00000000)  returns 0x00 (0000ms, 1052ms total)
T0EF8 001:743 JLINK_WriteReg(R11, 0x00000000)  returns 0x00 (0000ms, 1052ms total)
T0EF8 001:743 JLINK_WriteReg(R12, 0x00000000)  returns 0x00 (0000ms, 1052ms total)
T0EF8 001:743 JLINK_WriteReg(R13, 0x20000800)  returns 0x00 (0000ms, 1052ms total)
T0EF8 001:743 JLINK_WriteReg(R14, 0x20000001)  returns 0x00 (0000ms, 1052ms total)
T0EF8 001:743 JLINK_WriteReg(R15, 0x200000F4)  returns 0x00 (0000ms, 1052ms total)
T0EF8 001:743 JLINK_WriteReg(XPSR, 0x01000000)  returns 0x00 (0000ms, 1052ms total)
T0EF8 001:743 JLINK_WriteReg(MSP, 0x20000800)  returns 0x00 (0000ms, 1052ms total)
T0EF8 001:743 JLINK_WriteReg(PSP, 0x20000800)  returns 0x00 (0000ms, 1052ms total)
T0EF8 001:743 JLINK_WriteReg(CFBP, 0x00000000)  returns 0x00 (0000ms, 1052ms total)
T0EF8 001:743 JLINK_SetBPEx(Addr = 0x20000000, Type = 0xFFFFFFF2)  returns 0x0000000E (0000ms, 1052ms total)
T0EF8 001:743 JLINK_Go() -- CPU_WriteMem(4 bytes @ 0xE0002008) -- CPU_WriteMem(4 bytes @ 0xE000200C) -- CPU_WriteMem(4 bytes @ 0xE0002010) -- CPU_WriteMem(4 bytes @ 0xE0002014) -- CPU_WriteMem(4 bytes @ 0xE0002018) -- CPU_WriteMem(4 bytes @ 0xE000201C) (0008ms, 1052ms total)
T0EF8 001:751 JLINK_IsHalted()  returns FALSE (0001ms, 1060ms total)
T0EF8 001:802 JLINK_IsHalted() -- CPU_ReadMem(2 bytes @ 0x20000000)  returns TRUE (0006ms, 1060ms total)
T0EF8 001:808 JLINK_ReadReg(R15)  returns 0x20000000 (0000ms, 1060ms total)
T0EF8 001:808 JLINK_ClrBPEx(BPHandle = 0x0000000E)  returns 0x00 (0000ms, 1060ms total)
T0EF8 001:808 JLINK_ReadReg(R0)  returns 0x00000000 (0000ms, 1060ms total)
T0EF8 001:808 JLINK_WriteMem(0x20000164, 0x0400 Bytes, ...) -- Data:  0D 46 16 46 00 27 29 46 0A 2E 03 D0 00 20 08 70 ... -- CPU_WriteMem(1024 bytes @ 0x20000164)  returns 0x400 (0006ms, 1060ms total)
T0EF8 001:814 JLINK_WriteReg(R0, 0x08002800)  returns 0x00 (0000ms, 1066ms total)
T0EF8 001:814 JLINK_WriteReg(R1, 0x00000400)  returns 0x00 (0000ms, 1066ms total)
T0EF8 001:814 JLINK_WriteReg(R2, 0x20000164)  returns 0x00 (0000ms, 1066ms total)
T0EF8 001:814 JLINK_WriteReg(R3, 0x00000000)  returns 0x00 (0000ms, 1066ms total)
T0EF8 001:814 JLINK_WriteReg(R4, 0x00000000)  returns 0x00 (0000ms, 1066ms total)
T0EF8 001:814 JLINK_WriteReg(R5, 0x00000000)  returns 0x00 (0000ms, 1066ms total)
T0EF8 001:814 JLINK_WriteReg(R6, 0x00000000)  returns 0x00 (0000ms, 1066ms total)
T0EF8 001:814 JLINK_WriteReg(R7, 0x00000000)  returns 0x00 (0001ms, 1066ms total)
T0EF8 001:815 JLINK_WriteReg(R8, 0x00000000)  returns 0x00 (0000ms, 1067ms total)
T0EF8 001:815 JLINK_WriteReg(R9, 0x20000160)  returns 0x00 (0000ms, 1067ms total)
T0EF8 001:815 JLINK_WriteReg(R10, 0x00000000)  returns 0x00 (0000ms, 1067ms total)
T0EF8 001:815 JLINK_WriteReg(R11, 0x00000000)  returns 0x00 (0000ms, 1067ms total)
T0EF8 001:815 JLINK_WriteReg(R12, 0x00000000)  returns 0x00 (0000ms, 1067ms total)
T0EF8 001:815 JLINK_WriteReg(R13, 0x20000800)  returns 0x00 (0000ms, 1067ms total)
T0EF8 001:815 JLINK_WriteReg(R14, 0x20000001)  returns 0x00 (0000ms, 1067ms total)
T0EF8 001:815 JLINK_WriteReg(R15, 0x200000F4)  returns 0x00 (0000ms, 1067ms total)
T0EF8 001:815 JLINK_WriteReg(XPSR, 0x01000000)  returns 0x00 (0000ms, 1067ms total)
T0EF8 001:815 JLINK_WriteReg(MSP, 0x20000800)  returns 0x00 (0000ms, 1067ms total)
T0EF8 001:815 JLINK_WriteReg(PSP, 0x20000800)  returns 0x00 (0000ms, 1067ms total)
T0EF8 001:815 JLINK_WriteReg(CFBP, 0x00000000)  returns 0x00 (0000ms, 1067ms total)
T0EF8 001:815 JLINK_SetBPEx(Addr = 0x20000000, Type = 0xFFFFFFF2)  returns 0x0000000F (0000ms, 1067ms total)
T0EF8 001:815 JLINK_Go() -- CPU_WriteMem(4 bytes @ 0xE0002008) -- CPU_WriteMem(4 bytes @ 0xE000200C) -- CPU_WriteMem(4 bytes @ 0xE0002010) -- CPU_WriteMem(4 bytes @ 0xE0002014) -- CPU_WriteMem(4 bytes @ 0xE0002018) -- CPU_WriteMem(4 bytes @ 0xE000201C) (0012ms, 1067ms total)
T0EF8 001:827 JLINK_IsHalted()  returns FALSE (0001ms, 1079ms total)
T0EF8 001:878 JLINK_IsHalted() -- CPU_ReadMem(2 bytes @ 0x20000000)  returns TRUE (0006ms, 1079ms total)
T0EF8 001:884 JLINK_ReadReg(R15)  returns 0x20000000 (0000ms, 1079ms total)
T0EF8 001:884 JLINK_ClrBPEx(BPHandle = 0x0000000F)  returns 0x00 (0000ms, 1079ms total)
T0EF8 001:884 JLINK_ReadReg(R0)  returns 0x00000000 (0000ms, 1079ms total)
